!Part No: MASWSS0178
!2-port De-embedded S-parameters
!Date: 11-02-09
!Temp: Room
!Control Voltage = 0/5V
!REF: AQTN1557
!Fixture Loss is only removed from S21 and S12 data
!47pF Blocking Caps
!RFC to RF1 Insertion Loss State
#GHZ S MA R 50								
!Freq(GHz)	S11 (Mag)	S11 (Ang)	S21 (Mag)	S21 (Ang)	S12 (Mag)	S12 (Ang)	S22 (Mag)	S22 (Ang)
0.050000	0.833841	-31.734387	0.500509	57.218813	0.497342	55.417813	0.833311	-32.212487
0.079750	0.691126	-44.230762	0.668970	42.508638	0.670441	42.314138	0.690884	-45.151362
0.109500	0.566349	-53.039236	0.765468	32.324264	0.767650	32.202364	0.568051	-54.008436
0.139250	0.470612	-58.880011	0.824174	24.843259	0.825239	24.795169	0.470456	-59.965811
0.169000	0.395367	-63.000385	0.857699	19.003865	0.859994	19.348615	0.394852	-64.333085
0.198750	0.335496	-65.931560	0.879935	14.582540	0.883459	14.778840	0.335183	-67.571860
0.228500	0.288078	-68.083334	0.896513	11.097766	0.896857	11.023766	0.288337	-69.411334
0.258250	0.248545	-69.391809	0.905720	7.826391	0.908168	7.676391	0.249468	-70.708809
0.288000	0.216494	-70.453983	0.915710	5.149417	0.917194	5.024317	0.217756	-71.513983
0.317750	0.189961	-70.739158	0.920906	2.695542	0.922629	2.407142	0.191212	-71.686158
0.347500	0.165728	-71.274332	0.925216	0.305568	0.924954	0.508868	0.168737	-71.117332
0.377250	0.145439	-71.084506	0.926912	-1.746606	0.928092	-1.622006	0.148452	-70.529506
0.407000	0.128641	-70.437681	0.929508	-3.666881	0.931249	-3.514781	0.132396	-69.364681
0.436750	0.113590	-69.879855	0.931333	-5.268755	0.934088	-5.224955	0.118842	-67.372855
0.466500	0.100415	-69.291030	0.933316	-7.013230	0.931898	-6.954230	0.106850	-65.177030
0.496250	0.089345	-67.324204	0.934722	-8.539304	0.933592	-8.633304	0.097217	-62.823204
0.526000	0.080890	-65.705379	0.936055	-10.052079	0.938865	-9.987879	0.088787	-59.928379
0.555750	0.070651	-63.471553	0.937012	-11.424853	0.936688	-11.541853	0.083527	-57.277553
0.585500	0.063324	-62.071728	0.936810	-12.881828	0.938263	-13.040928	0.077275	-53.430728
0.615250	0.057457	-59.236902	0.938530	-14.340902	0.937022	-14.337502	0.072678	-50.031902
0.645000	0.052784	-56.931077	0.938547	-15.559277	0.940344	-15.683577	0.069689	-46.811077
0.674750	0.048246	-54.968251	0.938865	-16.913251	0.939071	-16.934251	0.067329	-44.171251
0.704500	0.044233	-51.855426	0.937689	-18.246426	0.938696	-18.286426	0.065038	-41.368426
0.734250	0.041437	-48.716600	0.936960	-19.487600	0.938036	-19.455600	0.063567	-40.344600
0.764000	0.040101	-47.108775	0.939022	-20.707775	0.939568	-20.803775	0.062404	-38.241775
0.793750	0.036986	-44.627949	0.939867	-21.800949	0.938187	-21.967949	0.062234	-35.956949
0.823500	0.036133	-42.324123	0.938100	-23.196123	0.939915	-23.119123	0.060336	-35.333123
0.853250	0.036323	-41.582298	0.937616	-24.265298	0.937799	-24.187298	0.058907	-35.127298
0.883000	0.034208	-41.423472	0.940102	-25.457472	0.938382	-25.538472	0.059665	-34.999472
0.912750	0.033274	-43.055647	0.938994	-26.693647	0.938742	-26.682647	0.058884	-35.205647
0.942500	0.034642	-40.204821	0.938412	-27.784821	0.938579	-27.804821	0.057041	-34.769821
0.972250	0.034627	-41.013996	0.936795	-28.786996	0.938497	-29.013996	0.056218	-36.216996
1.002000	0.034301	-42.861170	0.939012	-30.053170	0.939012	-30.053170	0.056349	-37.454170
1.031750	0.034367	-43.330345	0.940194	-31.153345	0.938857	-31.103345	0.055140	-37.670345
1.061500	0.035588	-44.014519	0.939358	-32.247519	0.939494	-32.316519	0.053583	-39.144519
1.091250	0.036934	-47.209694	0.938364	-33.324694	0.940138	-33.448694	0.052507	-42.133694
1.121000	0.037369	-49.251868	0.938371	-34.426868	0.940760	-34.460868	0.052464	-43.635868
1.150750	0.037996	-50.847043	0.938099	-35.517043	0.937542	-35.541043	0.050965	-45.055043
1.180500	0.041114	-51.464217	0.938443	-36.670217	0.939234	-36.632217	0.048898	-47.865217
1.210250	0.041687	-54.419392	0.939272	-37.662392	0.938060	-37.868392	0.048413	-50.961392
1.240000	0.042250	-56.660566	0.938294	-38.901566	0.937855	-38.934566	0.048384	-52.928566
1.269750	0.044499	-56.532741	0.938573	-39.943741	0.939910	-39.869741	0.045852	-54.824741
1.299500	0.047083	-58.057915	0.939538	-40.907915	0.939590	-40.988915	0.044503	-58.503915
1.329250	0.048205	-61.393089	0.940447	-42.075089	0.939142	-42.052089	0.044606	-62.403089
1.359000	0.049808	-61.774264	0.938570	-43.003264	0.939667	-43.092264	0.043866	-63.568264
1.388750	0.051564	-62.101438	0.938816	-44.233438	0.939854	-44.217438	0.041644	-66.620438
1.418500	0.054771	-63.659613	0.937812	-45.265613	0.937284	-45.231613	0.040868	-71.245613
1.448250	0.055317	-65.766787	0.936802	-46.235787	0.938026	-46.372787	0.041030	-73.827787
1.478000	0.056882	-65.775962	0.938693	-47.291962	0.940560	-47.381962	0.039806	-75.883062
1.507750	0.059525	-66.630136	0.944454	-48.384136	0.942703	-48.421136	0.038076	-79.473236
1.537500	0.060928	-68.709011	0.938542	-49.504311	0.938399	-49.476311	0.038353	-83.558011
1.567250	0.062665	-69.558785	0.937711	-50.389485	0.939929	-50.492485	0.038028	-85.917585
1.597000	0.064456	-69.013560	0.937788	-51.417660	0.938714	-51.560660	0.035754	-87.970360
1.626750	0.066048	-69.990334	0.936368	-52.655834	0.937876	-52.588834	0.035269	-92.104934
1.656500	0.067690	-71.883109	0.937165	-53.679009	0.936186	-53.685109	0.036288	-96.272909
1.686250	0.068738	-71.807883	0.937018	-54.652583	0.938234	-54.698783	0.034898	-96.582083
1.716000	0.070242	-71.968758	0.937826	-55.701958	0.937740	-55.818958	0.033728	-99.220558
1.745750	0.072713	-73.129532	0.937088	-56.833932	0.936756	-56.857132	0.033484	-104.487532
1.775500	0.073066	-74.366806	0.936042	-57.813606	0.937602	-57.920206	0.033931	-106.613606
1.805250	0.073440	-74.189381	0.935457	-58.830481	0.937586	-58.907481	0.033324	-107.025881
1.835000	0.077098	-75.411255	0.935215	-60.020755	0.937051	-59.842255	0.032614	-112.790455
1.864750	0.078203	-75.852430	0.935278	-61.053230	0.936175	-60.996530	0.032314	-115.706330
1.894500	0.077968	-76.864804	0.935745	-61.933604	0.935297	-62.036704	0.032506	-118.327935
1.924250	0.079493	-77.599579	0.934787	-63.082979	0.935559	-63.066179	0.031281	-119.615539
1.954000	0.081191	-78.352553	0.934966	-64.091453	0.935265	-64.128753	0.030836	-124.432253
1.983750	0.082627	-79.975728	0.934824	-65.059628	0.933089	-65.134928	0.031832	-128.831128
2.013500	0.082913	-80.161802	0.936702	-66.115202	0.934338	-66.179502	0.030827	-131.030402
2.043250	0.084013	-80.786477	0.932040	-67.200777	0.934421	-67.143077	0.030696	-134.428877
2.073000	0.085888	-82.853751	0.935670	-68.231251	0.934374	-68.193751	0.031283	-139.701051
2.102750	0.087489	-83.864756	0.934102	-69.078926	0.931129	-69.078726	0.032248	-143.117426
2.132500	0.088125	-84.660910	0.934383	-70.335000	0.932526	-70.272200	0.031323	-145.737700
2.162250	0.090247	-85.919015	0.932791	-71.333775	0.932558	-71.359175	0.032024	-152.833675
2.192000	0.091953	-87.690509	0.932525	-72.345559	0.932858	-72.370959	0.033373	-156.111549
2.221750	0.092814	-89.431923	0.931130	-73.357213	0.932300	-73.454443	0.034661	-159.028923
2.251500	0.093459	-89.227998	0.931048	-74.529428	0.931419	-74.460698	0.032948	-162.697398
2.281250	0.095891	-91.690872	0.932170	-75.471482	0.932125	-75.483892	0.035930	-168.657972
2.311000	0.097754	-93.865947	0.930353	-76.416947	0.929779	-76.534247	0.038269	-172.233847
2.340750	0.098981	-95.119021	0.927836	-77.595521	0.929510	-77.499921	0.039224	-175.446021
2.370500	0.100383	-96.307196	0.930226	-78.621996	0.930888	-78.540196	0.039834	179.746804
2.400250	0.103181	-98.310970	0.927940	-79.536270	0.929974	-79.689370	0.042478	174.866630
2.430000	0.104966	-99.916145	0.931985	-80.647545	0.930283	-80.680045	0.045035	172.687455
2.459750	0.105501	-101.247719	0.928805	-81.605319	0.931584	-81.752419	0.045725	170.453281
2.489500	0.108501	-102.897994	0.929433	-82.642394	0.928989	-82.672794	0.048174	165.633106
2.519250	0.111342	-104.548168	0.928421	-83.635068	0.928176	-83.700868	0.051273	163.033932
2.549000	0.112316	-106.071543	0.929287	-84.872243	0.928945	-84.840743	0.053030	161.615757
2.578750	0.114051	-107.344117	0.928995	-85.837317	0.929238	-85.730317	0.054816	158.045583
2.608500	0.117002	-108.874192	0.928057	-86.881692	0.924591	-86.945292	0.058115	154.700408
2.638250	0.119900	-111.044766	0.927110	-87.845466	0.927224	-87.973966	0.061362	153.281234
2.668000	0.120708	-112.088240	0.925944	-88.903040	0.924438	-89.039940	0.062365	152.205060
2.697750	0.121441	-113.206315	0.925011	-90.018315	0.925706	-90.009815	0.064112	148.274885
2.727500	0.125027	-114.695289	0.923792	-90.970989	0.923030	-91.046989	0.067985	147.149711
2.757250	0.128229	-116.885464	0.925413	-92.060364	0.924644	-92.112364	0.071494	145.765536
2.787000	0.127609	-118.171638	0.924053	-93.117538	0.924656	-93.053238	0.071428	144.488362
2.816750	0.128199	-117.775813	0.925857	-94.179113	0.925907	-94.285713	0.076488	142.294187
2.846500	0.130380	-120.352987	0.925177	-95.203287	0.924389	-95.052087	0.077050	140.834013
2.876250	0.131671	-122.219162	0.922968	-96.161162	0.925224	-96.261162	0.078104	140.524838
2.906000	0.132317	-122.988336	0.922901	-97.229336	0.924998	-97.245336	0.078301	138.475664
2.935750	0.133280	-123.640511	0.922123	-98.346511	0.923961	-98.287511	0.081036	136.716489
2.965500	0.133676	-125.782685	0.923907	-99.252685	0.922448	-99.284685	0.084006	136.913315
2.995250	0.132401	-127.221860	0.921418	-100.289860	0.923638	-100.418860	0.082648	136.938140
3.025000	0.132503	-128.103034	0.923921	-101.371034	0.923792	-101.443034	0.081885	135.047966
3.054750	0.131981	-128.874209	0.921116	-102.415209	0.922989	-102.391209	0.084822	133.873791
3.084500	0.130447	-130.774383	0.922701	-103.423383	0.924429	-103.498383	0.085250	134.989617
3.114250	0.128708	-131.916558	0.925940	-104.521558	0.926382	-104.613558	0.082396	134.712742
3.144000	0.128543	-132.614732	0.932916	-105.562732	0.932221	-105.558732	0.083024	132.898868
3.173750	0.126157	-134.160906	0.930321	-106.590906	0.930814	-106.655906	0.084237	133.381694
3.203500	0.122515	-136.028081	0.925447	-107.798081	0.924644	-107.715081	0.082657	135.633519
3.233250	0.118858	-137.201255	0.921835	-108.699255	0.923878	-108.754255	0.079610	135.550445
3.263000	0.116659	-138.139430	0.922173	-109.786430	0.921754	-109.835430	0.079976	135.393070
3.292750	0.112935	-139.725604	0.922530	-110.913604	0.921965	-110.884604	0.079487	137.159996
3.322500	0.107385	-142.165779	0.921011	-111.873779	0.921739	-111.906779	0.077158	139.504921
3.352250	0.103142	-143.334953	0.920720	-113.046953	0.920522	-113.000953	0.075319	140.539847
3.382000	0.099461	-144.831128	0.921289	-113.855128	0.920397	-114.087128	0.074937	141.924772
3.411750	0.093562	-147.908302	0.919858	-115.091302	0.920998	-115.160302	0.074376	145.374198
3.441500	0.086777	-150.676477	0.920020	-116.424477	0.920195	-116.383477	0.072673	149.483023
3.471250	0.081975	-152.377651	0.920078	-117.449651	0.920029	-117.421651	0.070665	151.241549
3.501000	0.076404	-155.265826	0.918118	-118.473826	0.919363	-118.554826	0.072039	154.182374
3.530750	0.069327	-160.395000	0.916538	-119.716000	0.919239	-119.603000	0.072746	159.232000
3.560500	0.063432	-164.731175	0.918181	-120.613175	0.916745	-120.752175	0.072143	164.001725
3.590250	0.058448	-168.920149	0.919156	-121.864349	0.918609	-121.832349	0.073174	165.715551
3.620000	0.051993	-176.042723	0.919437	-123.032523	0.916557	-123.120523	0.077635	169.240877
3.649750	0.046036	174.168202	0.917927	-124.051698	0.917345	-124.093698	0.080289	174.699302
3.679500	0.043755	167.330828	0.916195	-125.286872	0.916335	-125.163872	0.082070	176.424128
3.709250	0.040381	158.600353	0.914975	-126.249047	0.913772	-126.335047	0.085608	177.866453
3.739000	0.039581	144.720179	0.914778	-127.467221	0.916511	-127.497221	0.091359	-179.380221
3.768750	0.041212	129.852204	0.912237	-128.675396	0.912606	-128.576396	0.094512	-175.986996
3.798500	0.043967	120.425800	0.909580	-129.800570	0.912843	-129.690570	0.097379	-174.672870
3.828250	0.046303	112.557755	0.913242	-130.961745	0.912902	-131.011745	0.104002	-174.536845
3.858000	0.050160	102.631281	0.908590	-132.088819	0.910435	-132.022719	0.110505	-173.230819
3.887750	0.054985	95.992806	0.906272	-132.990394	0.908396	-133.290794	0.114046	-172.799994
3.917500	0.058984	94.674932	0.905314	-134.125068	0.904851	-134.275868	0.116370	-173.717768
3.947250	0.063450	93.627357	0.905636	-135.077643	0.904723	-135.102743	0.119852	-174.390243
3.977000	0.071020	90.142883	0.904113	-136.170217	0.905519	-136.221617	0.122152	-174.093717
4.006750	0.078311	88.924508	0.908359	-137.243892	0.906888	-137.236492	0.123013	-173.397892
4.036500	0.086362	88.200634	0.908370	-138.469866	0.907630	-138.549766	0.124997	-173.675866
4.066250	0.092857	86.877560	0.905610	-139.699240	0.907149	-139.858940	0.128647	-174.045040
4.096000	0.097702	84.635785	0.906988	-140.813915	0.907882	-140.911615	0.131128	-174.202115
4.125750	0.103169	83.801911	0.906512	-141.935389	0.905199	-142.156789	0.130564	-175.143389
4.155500	0.108659	85.083036	0.907271	-143.264964	0.905154	-143.227564	0.131045	-176.968864
4.185250	0.113451	84.806562	0.905559	-144.468838	0.903409	-144.545338	0.132963	-178.098008
4.215000	0.117644	84.531687	0.904637	-145.568613	0.904838	-145.495413	0.132837	-179.079273
4.244750	0.121217	85.794413	0.904443	-146.841187	0.904027	-146.865787	0.129700	178.661863
4.274500	0.124512	87.086238	0.902528	-147.975562	0.901250	-147.997162	0.127820	176.178758
4.304250	0.128440	88.216664	0.902046	-149.172936	0.902879	-149.228736	0.126478	174.385764
4.334000	0.129894	89.594289	0.902400	-150.449811	0.903114	-150.381111	0.121754	172.165589
4.363750	0.132889	91.999115	0.902377	-151.672885	0.902626	-151.486285	0.116840	168.357815
4.393500	0.136856	94.579940	0.903292	-152.818840	0.902407	-152.837790	0.112904	164.340540
4.423250	0.139587	96.456766	0.902728	-154.005114	0.902263	-154.150134	0.108069	161.194166
4.453000	0.142485	98.727591	0.901198	-155.272209	0.901119	-155.256829	0.101628	156.624891
4.482750	0.146218	102.533417	0.900347	-156.656713	0.900479	-156.527743	0.094240	149.835117
4.512500	0.150527	105.577243	0.898970	-157.789057	0.900264	-157.894757	0.089064	143.172443
4.542250	0.153610	107.912068	0.901184	-159.102732	0.900754	-159.240232	0.083308	136.600868
4.572000	0.158813	111.828894	0.900907	-160.440606	0.901245	-160.380806	0.077248	126.145994
4.601750	0.166493	115.652719	0.899615	-161.697681	0.899793	-161.714581	0.074705	112.423719
4.631500	0.173502	117.967545	0.900560	-163.074055	0.898475	-163.008855	0.075303	102.437545
4.661250	0.178838	121.599370	0.899872	-164.269130	0.896969	-164.414930	0.074628	89.714370
4.691000	0.186726	124.951196	0.898314	-165.677004	0.897308	-165.671304	0.079352	75.222196
4.720750	0.199056	127.491021	0.897011	-166.940279	0.891218	-166.893879	0.090610	64.420021
4.750500	0.209841	129.953847	0.891606	-168.374753	0.892501	-168.283153	0.098663	55.166847
4.780250	0.217130	132.675672	0.893015	-169.620328	0.889767	-169.737828	0.109290	46.466672
4.810000	0.228694	134.853498	0.886583	-170.889502	0.886443	-171.218002	0.126296	39.560498
4.839750	0.241388	137.057323	0.884949	-172.329677	0.888275	-172.369677	0.141342	33.719323
4.869500	0.251345	138.740149	0.881819	-173.791751	0.884693	-173.782851	0.155645	28.871149
4.899250	0.262936	140.807974	0.882818	-175.067526	0.882046	-175.125126	0.173656	24.200974
4.929000	0.275693	142.501800	0.881623	-176.268900	0.880424	-176.476800	0.192568	20.257800
4.958750	0.287257	143.484626	0.878464	-177.443574	0.881463	-177.529874	0.209165	17.399626
4.988500	0.299889	145.152451	0.868333	-178.749849	0.872359	-178.829549	0.224275	13.881551
5.018250	0.312698	146.826277	0.856526	179.954977	0.856509	179.756477	0.244608	10.952177
5.048000	0.325794	147.348102	0.847151	178.802102	0.847196	178.635102	0.260651	8.532902
5.077750	0.338000	148.083928	0.833940	177.655928	0.838538	177.625928	0.278744	6.551828
5.107500	0.349209	148.923753	0.827289	176.689753	0.828857	176.260753	0.292944	3.710753
5.137250	0.359892	149.589579	0.821576	175.354579	0.822476	175.123579	0.309549	1.720979
5.167000	0.369360	149.806404	0.816483	174.292404	0.814684	174.040404	0.325897	0.228704
5.196750	0.375382	150.169230	0.807458	173.193230	0.808708	172.785230	0.336997	-1.435670
5.226500	0.385679	150.969055	0.797795	172.280055	0.796277	171.703055	0.352854	-3.337445
5.256250	0.393610	151.137881	0.790028	170.821881	0.792120	170.732881	0.366019	-4.218119
5.286000	0.397775	151.216706	0.784377	170.006706	0.785168	169.715706	0.376264	-5.702094
5.315750	0.401028	151.293532	0.779822	168.726532	0.778468	168.657532	0.388074	-6.957168
5.345500	0.407188	151.732357	0.771323	168.072357	0.771591	167.541357	0.400175	-7.908743
5.375250	0.409178	151.779183	0.767316	166.912183	0.761694	166.686183	0.408011	-8.648017
5.405000	0.409612	151.673008	0.757079	166.044008	0.755822	165.892008	0.419040	-9.672492
5.434750	0.410309	151.715834	0.755148	165.178834	0.753552	164.769834	0.424865	-10.467166
5.464500	0.410197	151.684660	0.749035	164.103660	0.745537	163.987660	0.431910	-11.111940
5.494250	0.408471	151.795485	0.745538	163.322485	0.742585	163.035485	0.440368	-11.663975
5.524000	0.404055	151.219311	0.741800	162.569311	0.738034	162.309311	0.445757	-12.332219
5.553750	0.402033	150.849136	0.738171	161.502136	0.735922	161.424136	0.449364	-12.728499
5.583500	0.397385	150.296962	0.737087	160.463962	0.732065	160.424962	0.452955	-12.924858
5.613250	0.386603	149.417787	0.734730	159.725787	0.732635	159.315787	0.454837	-13.162573
5.643000	0.379055	148.303613	0.731080	158.540613	0.727558	158.501613	0.457017	-13.494987
5.672750	0.369635	147.553438	0.733021	157.598438	0.727103	157.433438	0.458124	-13.480162
5.702500	0.356900	146.230264	0.735484	156.575264	0.728936	156.484264	0.459104	-13.042836
5.732250	0.342609	144.293089	0.732721	155.562089	0.725818	155.310089	0.456179	-13.132711
5.762000	0.328290	142.384915	0.730539	154.447915	0.724087	154.195915	0.456943	-12.840885
5.791750	0.311921	140.396740	0.730062	153.200740	0.727160	153.007740	0.453419	-12.414560
5.821500	0.292965	137.705566	0.730211	151.906566	0.727745	151.740566	0.453390	-11.217534
5.851250	0.272854	134.601391	0.732411	150.572391	0.725739	150.247391	0.447843	-11.013209
5.881000	0.255000	130.850217	0.727609	149.224217	0.724005	149.199217	0.446414	-10.072083
5.910750	0.235681	126.123943	0.728564	148.034043	0.726032	148.076043	0.442664	-8.815557
5.940500	0.214309	120.838868	0.728843	146.482868	0.725867	146.486868	0.438579	-7.492232
5.970250	0.197322	113.691194	0.727781	145.212694	0.720148	145.215694	0.436484	-6.459606
6.000000	0.180851	105.423819	0.723079	143.649319	0.718975	143.854519	0.435698	-4.771581
