!Part No: MASWSS0178
!2-port De-embedded S-parameters
!Date: 11-02-09
!Temp: Room
!Control Voltage = 0/5V
!REF: AQTN1557
!Fixture Loss is only removed from S21 and S12 data
!47pF Blocking Caps
!RFC to RF1 Isolation State
#GHZ S MA R 50								
!Freq(GHz)	S11 (Mag)	S11 (Ang)	S21 (Mag)	S21 (Ang)	S12 (Mag)	S12 (Ang)	S22 (Mag)	S22 (Ang)
0.050000	0.835843	-31.671987	0.002798	-77.714887	0.001013	27.130113	0.861070	-29.368287
0.079750	0.689688	-44.943562	0.001528	78.232738	0.001884	-43.036562	0.730721	-41.549162
0.109500	0.560797	-53.170836	0.001433	35.535864	0.002109	4.345244	0.614122	-50.323336
0.139250	0.478530	-58.393511	0.001952	43.238589	0.001192	-34.509211	0.521038	-56.275311
0.169000	0.404466	-65.146785	0.001433	6.646215	0.001097	-18.863085	0.448193	-60.659385
0.198750	0.322487	-68.662660	0.001355	44.106540	0.000529	5.324140	0.389789	-63.941060
0.228500	0.276404	-66.859034	0.001546	7.435566	0.001219	6.367766	0.344203	-66.618634
0.258250	0.255161	-69.142809	0.001384	-5.742309	0.001274	31.332261	0.307571	-68.616809
0.288000	0.216098	-75.069983	0.000881	-0.413583	0.001356	7.044117	0.276354	-70.131983
0.317750	0.168970	-73.322158	0.000698	7.954442	0.001329	12.641542	0.249810	-71.464158
0.347500	0.154976	-67.341332	0.000968	9.211468	0.001285	14.069768	0.228300	-72.735332
0.377250	0.147606	-70.589506	0.000549	-26.078606	0.000913	32.781794	0.209421	-73.965506
0.407000	0.117971	-74.171681	0.001401	14.270119	0.000949	10.096419	0.192852	-75.033681
0.436750	0.096083	-64.155855	0.000871	7.032945	0.001039	-4.089255	0.178815	-76.023855
0.466500	0.101958	-59.586030	0.001010	19.757970	0.001315	4.122770	0.165526	-77.114030
0.496250	0.094455	-68.398204	0.001261	-3.814004	0.001027	3.585996	0.153727	-78.497204
0.526000	0.066442	-67.620379	0.000798	-7.446979	0.001018	-15.216379	0.144323	-79.538379
0.555750	0.063530	-47.050553	0.001064	3.065447	0.000830	14.161047	0.134909	-80.794553
0.585500	0.076323	-50.876728	0.000792	-4.435428	0.001153	-0.729728	0.126654	-82.094728
0.615250	0.063841	-63.943902	0.001046	-17.383802	0.000956	9.919198	0.119285	-83.714902
0.645000	0.040642	-51.127077	0.000938	-10.500077	0.001183	-11.645677	0.113050	-85.427077
0.674750	0.053378	-29.580251	0.000944	-17.931251	0.001145	15.547349	0.107080	-87.194251
0.704500	0.065202	-43.836426	0.001330	10.309774	0.001131	3.497974	0.101382	-89.133426
0.734250	0.049780	-59.209600	0.001044	-14.466600	0.000997	-11.910600	0.096468	-91.649600
0.764000	0.033896	-37.147775	0.000854	-1.482275	0.000887	-6.003775	0.092447	-93.729775
0.793750	0.050810	-25.225949	0.000808	10.493951	0.000605	11.973551	0.088424	-95.476949
0.823500	0.059357	-44.743123	0.001038	-10.661123	0.000826	11.825277	0.084220	-98.499123
0.853250	0.044276	-59.742298	0.001122	-19.033298	0.001043	-16.481298	0.081841	-101.613298
0.883000	0.031666	-37.839472	0.000965	-12.076472	0.000956	-14.962472	0.080018	-103.855472
0.912750	0.047100	-31.740647	0.000773	-10.459647	0.001034	-13.795647	0.077247	-106.550647
0.942500	0.054084	-50.268821	0.001122	4.110179	0.001032	-4.795821	0.074902	-109.972821
0.972250	0.040849	-62.903996	0.000999	-2.714996	0.000986	-3.937996	0.074234	-113.218996
1.002000	0.034062	-46.182170	0.000786	-8.697170	0.000932	-17.698170	0.073262	-115.795170
1.031750	0.047937	-44.618345	0.000711	1.507655	0.000752	18.752655	0.071551	-118.674345
1.061500	0.051539	-62.997519	0.000929	-8.833519	0.001081	0.288481	0.071078	-122.212519
1.091250	0.039699	-74.412694	0.000923	-24.371694	0.001152	-13.383694	0.071801	-125.211294
1.121000	0.033400	-58.185868	0.000615	-18.774868	0.000743	-3.622868	0.071819	-127.218568
1.150750	0.045482	-56.603043	0.000911	-6.867043	0.000866	6.920957	0.070999	-130.196743
1.180500	0.048293	-72.231217	0.000968	-5.817217	0.000664	-0.757217	0.071724	-133.693417
1.210250	0.037221	-77.994392	0.000870	-54.325392	0.000933	-20.265392	0.073418	-136.169592
1.240000	0.036065	-61.774566	0.000448	-34.098566	0.000848	-32.116566	0.073208	-137.715466
1.269750	0.049687	-63.024741	0.000667	-36.175741	0.000650	-20.328741	0.072924	-140.594341
1.299500	0.050285	-79.425915	0.000762	-42.706915	0.000849	-25.602915	0.074861	-143.532815
1.329250	0.037278	-83.928089	0.000693	-32.960089	0.000618	-19.793089	0.076413	-145.057789
1.359000	0.036937	-61.152264	0.000677	-52.655264	0.000913	-35.190264	0.076284	-146.651664
1.388750	0.052733	-62.673438	0.000607	-20.597438	0.000573	-40.763438	0.077091	-149.299338
1.418500	0.054827	-78.162613	0.000482	-49.978613	0.000746	-16.786613	0.079324	-151.829113
1.448250	0.042199	-81.673787	0.000657	-49.221787	0.000474	-48.695787	0.080483	-152.426587
1.478000	0.042813	-64.101962	0.000400	-57.364962	0.000492	-39.566962	0.079959	-154.580162
1.507750	0.056581	-65.930136	0.000575	-24.069136	0.000478	-50.316136	0.081127	-156.883236
1.537500	0.055438	-78.833011	0.000695	-48.317311	0.000513	-33.584311	0.083623	-158.366301
1.567250	0.043999	-77.656885	0.000500	-77.097385	0.000655	-69.241085	0.084054	-159.121405
1.597000	0.048508	-59.932660	0.000419	-45.068660	0.000532	-65.236160	0.083548	-161.382410
1.626750	0.062198	-63.467934	0.000326	-63.187934	0.000288	-74.628734	0.085690	-163.873634
1.656500	0.061522	-74.555109	0.000541	-108.425409	0.000544	-89.411309	0.087352	-164.666609
1.686250	0.052559	-70.812583	0.000548	-91.470083	0.000730	-113.741383	0.087184	-165.654483
1.716000	0.058466	-60.181358	0.000188	-62.067758	0.000330	-123.808658	0.087178	-168.336858
1.745750	0.069473	-65.873232	0.000504	-77.017832	0.000252	-135.519652	0.089244	-170.199532
1.775500	0.065414	-72.631806	0.000188	-153.678906	0.000405	-114.313506	0.090629	-171.130506
1.805250	0.060378	-65.296481	0.000612	-128.297621	0.000345	-118.510781	0.089958	-172.335681
1.835000	0.073581	-60.883755	0.000392	-138.959655	0.000558	-169.605455	0.090490	-174.830255
1.864750	0.081638	-70.088530	0.000280	-134.410830	0.000438	-137.498230	0.092486	-176.553430
1.894500	0.072284	-76.493904	0.000799	-165.135904	0.000665	-144.980204	0.093485	-177.307204
1.924250	0.068203	-66.028679	0.000697	-145.128379	0.000968	177.348621	0.092340	-179.602579
1.954000	0.084955	-63.731053	0.000887	-174.884853	0.000710	167.270047	0.094215	177.652847
1.983750	0.092357	-75.234228	0.000659	-152.358328	0.000851	169.930672	0.096771	176.549772
2.013500	0.079007	-80.321302	0.000828	-151.666802	0.000721	-163.651602	0.096202	175.543198
2.043250	0.075240	-69.129877	0.000977	-173.279577	0.001119	-160.268477	0.096697	172.611823
2.073000	0.095289	-68.885251	0.000728	170.153949	0.000913	161.718549	0.098858	170.568049
2.102750	0.103721	-80.088226	0.001050	-169.532826	0.000592	173.203874	0.100937	169.586474
2.132500	0.089526	-85.267460	0.001035	-174.425000	0.001273	-150.395800	0.100657	167.825200
2.162250	0.087774	-76.872245	0.001309	-178.354075	0.000990	-161.076175	0.101748	165.066025
2.192000	0.105905	-78.091549	0.001287	168.430851	0.001057	175.936851	0.104954	163.175851
2.221750	0.111070	-87.969623	0.001212	-176.520923	0.001078	-168.932223	0.105961	162.005677
2.251500	0.098102	-91.727098	0.001349	-163.201698	0.001250	-170.009198	0.105972	159.899502
2.281250	0.099752	-85.578672	0.001361	173.580328	0.001549	-178.457672	0.108509	157.484328
2.311000	0.116316	-88.816347	0.001318	177.392153	0.001116	-175.848847	0.111957	156.042153
2.340750	0.116186	-97.608221	0.001216	-178.794021	0.001129	-176.662021	0.112564	154.924979
2.370500	0.104511	-97.940796	0.001606	-176.107196	0.001666	177.490804	0.113390	152.544804
2.400250	0.113142	-93.607470	0.001710	168.302630	0.001846	174.191630	0.117453	149.994630
2.430000	0.128509	-99.669845	0.001865	177.288455	0.001594	168.403455	0.120670	149.725455
2.459750	0.121804	-108.789519	0.001599	-168.695719	0.001660	-171.047719	0.120834	148.392281
2.489500	0.106614	-107.033094	0.002183	179.757106	0.002071	-167.492894	0.122949	145.697106
2.519250	0.117744	-101.056968	0.002119	170.327932	0.002130	177.139932	0.127750	144.125932
2.549000	0.133572	-107.356743	0.001830	-177.277243	0.002149	173.246757	0.130012	143.838757
2.578750	0.126001	-115.194517	0.002617	-177.378417	0.001885	-177.981417	0.130018	142.073583
2.608500	0.114294	-111.975992	0.003040	175.749408	0.002727	177.333408	0.134128	139.595408
2.638250	0.129382	-108.598266	0.002776	169.415234	0.002463	172.928234	0.138602	138.872234
2.668000	0.143399	-115.988440	0.002544	176.224060	0.002356	-179.223940	0.140105	138.224060
2.697750	0.132359	-123.535115	0.003025	-174.009115	0.002975	178.219885	0.142105	136.419885
2.727500	0.120470	-120.613289	0.003146	172.593711	0.003552	178.654711	0.146573	135.008711
2.757250	0.131824	-117.571464	0.003211	170.866536	0.003169	170.222536	0.150261	134.649536
2.787000	0.139593	-123.678638	0.003250	172.551362	0.003324	177.516362	0.150893	133.827362
2.816750	0.128868	-127.719813	0.003370	-178.262813	0.003948	-175.682813	0.153479	132.007187
2.846500	0.123985	-124.039987	0.003983	169.327013	0.004075	173.782013	0.158422	131.094013
2.876250	0.135630	-124.496162	0.003975	172.158838	0.004253	169.813838	0.161072	131.074838
2.906000	0.135720	-130.048336	0.004228	176.015664	0.004052	172.696664	0.161849	130.021664
2.935750	0.123894	-130.865511	0.004665	168.532489	0.004947	175.479489	0.164674	128.286489
2.965500	0.125980	-126.551685	0.005072	167.914315	0.005023	169.578315	0.170012	127.808315
2.995250	0.136934	-129.701860	0.004592	165.969140	0.004755	168.945140	0.171514	128.018140
3.025000	0.130173	-135.540034	0.004969	171.023966	0.005085	169.844966	0.171007	126.727966
3.054750	0.117651	-133.752209	0.005484	169.096791	0.005754	168.454791	0.175277	125.271791
3.084500	0.123544	-130.251383	0.005838	162.886617	0.005562	164.193617	0.179329	125.266317
3.114250	0.130131	-135.486558	0.005755	162.072442	0.005714	163.581442	0.179323	125.200642
3.144000	0.117471	-140.311732	0.006394	166.684268	0.006355	167.348268	0.179987	123.876568
3.173750	0.106458	-135.447906	0.006803	163.089094	0.006816	163.917094	0.184137	122.884894
3.203500	0.114974	-133.146081	0.006526	158.879919	0.007010	156.816919	0.185926	123.041119
3.233250	0.116858	-139.876255	0.006942	159.773745	0.006746	161.259745	0.185385	122.686545
3.263000	0.102505	-142.636430	0.007311	160.865570	0.007284	161.142570	0.186829	121.347270
3.292750	0.096519	-137.130604	0.007662	156.658996	0.007964	154.447196	0.189603	120.744296
3.322500	0.102819	-139.320779	0.007597	156.805121	0.007821	154.180921	0.190209	120.886421
3.352250	0.096310	-147.292953	0.008046	158.381547	0.008428	157.161347	0.189298	120.306947
3.382000	0.080170	-145.051128	0.008726	156.003572	0.008899	155.819672	0.189918	118.934872
3.411750	0.081530	-138.732302	0.009102	153.147598	0.009207	151.956698	0.193139	118.523498
3.441500	0.087337	-147.645477	0.008984	152.206123	0.008747	153.732623	0.192081	118.794123
3.471250	0.072588	-158.095651	0.009619	152.846449	0.009629	152.474049	0.189505	117.656249
3.501000	0.054789	-149.361826	0.010403	149.865774	0.010446	149.784874	0.190818	116.317074
3.530750	0.063256	-143.158000	0.010305	145.311400	0.010353	144.410200	0.193257	116.321900
3.560500	0.067019	-159.601175	0.010217	146.918425	0.010570	147.406125	0.189664	116.206225
3.590250	0.047940	-175.568749	0.011248	147.828651	0.011229	146.226351	0.187340	114.609551
3.620000	0.031482	-157.818523	0.012190	143.978277	0.011882	144.736577	0.188777	113.588577
3.649750	0.045276	-155.115698	0.011382	141.708002	0.011527	139.893702	0.188172	113.753072
3.679500	0.052127	175.731128	0.012063	143.464328	0.012193	144.222528	0.183741	113.068208
3.709250	0.037485	145.766053	0.012773	140.755353	0.012962	142.748853	0.181631	111.294351
3.739000	0.019207	149.792879	0.013804	137.191379	0.013906	139.336379	0.182299	110.325169
3.768750	0.032570	161.902604	0.013175	136.555104	0.013438	135.696604	0.179953	109.936594
3.798500	0.047684	131.969010	0.014084	138.145730	0.013710	137.417130	0.174920	108.757830
3.828250	0.044453	101.058255	0.014944	136.607865	0.014775	136.456105	0.173002	106.578455
3.858000	0.028981	98.474681	0.015567	131.191788	0.015039	132.884341	0.172791	105.578881
3.887750	0.043841	120.334106	0.014851	131.076456	0.015216	130.405606	0.168867	105.133206
3.917500	0.066062	104.916232	0.016007	133.802302	0.015945	133.282222	0.163555	103.098532
3.947250	0.062394	85.537957	0.017043	131.171657	0.017263	132.238457	0.162705	100.445357
3.977000	0.050982	93.714783	0.017387	126.737683	0.017478	126.364383	0.161031	99.438083
4.006750	0.075618	106.167008	0.017020	127.386408	0.016875	126.206108	0.155695	98.181608
4.036500	0.097246	92.092134	0.017865	129.349934	0.017912	128.410634	0.151229	94.903534
4.066250	0.087830	80.452360	0.019863	124.967560	0.019739	125.098760	0.151024	92.159660
4.096000	0.078861	92.808185	0.019652	120.428185	0.019408	121.807685	0.148136	90.665285
4.125750	0.109255	97.962511	0.019187	123.723711	0.019288	121.982811	0.142397	87.726611
4.155500	0.125700	85.771536	0.020337	123.168136	0.020683	122.712536	0.140794	83.456036
4.185250	0.106995	79.370862	0.022289	119.799762	0.022577	119.321462	0.141356	80.765962
4.215000	0.103484	92.722587	0.022086	114.403587	0.021886	115.623087	0.138169	78.323187
4.244750	0.134266	94.690013	0.021669	115.419313	0.021857	115.992913	0.134634	73.816813
4.274500	0.139192	84.826438	0.023882	116.225838	0.023784	115.496138	0.136090	68.818638
4.304250	0.117566	85.990464	0.024814	111.330764	0.024850	112.466064	0.137515	65.811464
4.334000	0.127581	98.643889	0.024245	108.425789	0.024239	108.892889	0.134750	62.349289
4.363750	0.155414	95.717615	0.024723	110.429015	0.024612	110.662515	0.135059	56.721115
4.393500	0.147639	88.929940	0.026896	109.048440	0.026836	108.845840	0.140285	52.182940
4.423250	0.127873	96.874766	0.027255	104.375266	0.027672	103.263766	0.143105	49.461766
4.453000	0.151621	106.102591	0.026998	101.991591	0.026794	101.842591	0.143665	45.077591
4.482750	0.170108	100.677417	0.027394	103.240417	0.027787	103.716417	0.149293	39.734417
4.512500	0.150107	98.604243	0.029809	101.205243	0.030220	100.963243	0.157527	36.606243
4.542250	0.145124	111.066068	0.030457	96.361068	0.030232	95.538068	0.161009	34.086068
4.572000	0.177213	114.745894	0.029569	95.076894	0.029668	95.490894	0.165402	29.540894
4.601750	0.181537	109.170719	0.030668	96.367719	0.031023	96.692719	0.176689	25.876719
4.631500	0.159333	113.024545	0.033279	94.032545	0.033423	93.438545	0.184818	24.053545
4.661250	0.176319	125.675370	0.033218	88.143370	0.033075	87.438370	0.189544	21.375370
4.691000	0.208173	123.966196	0.032096	87.779196	0.031812	88.200196	0.199336	17.839196
4.720750	0.202069	120.070021	0.033665	88.683021	0.034113	89.044021	0.210797	15.744021
4.750500	0.188580	128.324847	0.036159	84.685847	0.036348	83.691847	0.220080	14.690847
4.780250	0.218482	135.611672	0.035827	78.933672	0.035719	79.973672	0.226851	12.218672
4.810000	0.241835	132.158498	0.034117	80.254498	0.034531	79.516498	0.240146	9.858498
4.839750	0.230126	132.233323	0.036170	80.846323	0.036143	80.353323	0.252238	8.614323
4.869500	0.235660	139.903149	0.038290	75.608149	0.038495	75.390149	0.260708	7.809149
4.899250	0.269181	141.357974	0.036830	72.891974	0.036743	72.919974	0.269113	5.972974
4.929000	0.275937	138.662800	0.036867	73.661800	0.036947	74.033800	0.282508	4.611700
4.958750	0.264116	142.113626	0.040437	72.788626	0.039830	73.196626	0.295355	4.243826
4.988500	0.289095	148.189451	0.040212	67.562451	0.041078	68.121451	0.302364	3.274151
5.018250	0.322772	147.244277	0.038301	65.371277	0.038536	65.654277	0.312889	1.637477
5.048000	0.321304	144.731102	0.038849	67.268102	0.037977	66.863102	0.329629	0.815202
5.077750	0.318271	148.138928	0.040975	65.467928	0.040874	64.662928	0.338380	0.978128
5.107500	0.346521	151.282753	0.041219	60.322753	0.041164	59.925753	0.345313	0.068353
5.137250	0.368161	149.053579	0.039341	58.501579	0.039050	58.950579	0.357050	-1.320721
5.167000	0.359416	148.032404	0.039488	59.750404	0.039963	60.004404	0.371347	-1.229996
5.196750	0.361963	151.371230	0.040983	56.719230	0.042568	56.538230	0.378847	-1.304870
5.226500	0.389102	152.532055	0.040777	52.212055	0.041271	53.314055	0.386663	-2.033745
5.256250	0.398368	150.298881	0.039652	52.092881	0.039174	52.172881	0.401137	-2.792619
5.286000	0.386058	150.259706	0.039909	53.510706	0.040593	52.997706	0.411874	-2.622594
5.315750	0.393008	153.315532	0.041872	49.761532	0.041708	49.497132	0.417893	-2.255168
5.345500	0.414855	152.875357	0.041214	46.209657	0.040701	46.003357	0.425936	-3.070343
5.375250	0.412765	150.688183	0.039357	45.120283	0.039219	46.048583	0.437172	-3.865617
5.405000	0.401107	151.526008	0.040120	46.296108	0.040241	46.335108	0.447958	-3.053192
5.434750	0.408031	153.065834	0.041324	43.505934	0.041627	43.274234	0.452939	-2.872366
5.464500	0.419369	151.915660	0.039917	41.400660	0.040448	40.359960	0.459782	-3.417940
5.494250	0.409206	150.345485	0.039643	41.363185	0.039104	41.039985	0.472604	-3.575915
5.524000	0.397822	151.528311	0.041196	40.636511	0.040622	40.875811	0.479952	-2.621989
5.553750	0.404876	152.029136	0.040919	37.335936	0.041143	37.573736	0.482309	-2.639564
5.583500	0.406093	149.629962	0.039585	36.205062	0.039874	35.464462	0.490258	-3.294018
5.613250	0.384504	148.121787	0.039230	37.164787	0.039638	36.628187	0.504251	-3.116293
5.643000	0.372225	148.699613	0.040606	35.814813	0.041088	35.556013	0.505916	-2.293033
5.672750	0.376435	148.360438	0.040428	32.467138	0.041352	32.079438	0.508874	-2.441802
5.702500	0.365913	145.229264	0.039605	31.770664	0.039909	31.029364	0.517012	-2.894926
5.732250	0.340151	143.044089	0.039740	32.625689	0.039652	31.499089	0.526536	-2.052611
5.762000	0.325142	142.757915	0.040748	30.849315	0.041080	31.060615	0.528910	-1.200285
5.791750	0.319191	140.669740	0.040457	28.188740	0.040500	27.649640	0.530106	-1.442660
5.821500	0.298033	136.311566	0.039912	28.123496	0.039643	27.785776	0.538642	-1.556634
5.851250	0.270225	133.359391	0.040151	28.523011	0.040340	27.712441	0.545251	-0.632309
5.881000	0.254756	131.301217	0.041371	26.457747	0.041329	26.799097	0.543917	-0.134083
5.910750	0.242256	126.381743	0.040488	24.690153	0.040769	23.939143	0.545821	-0.175257
5.940500	0.218039	118.775668	0.040334	25.143168	0.039482	24.814768	0.552570	0.139468
5.970250	0.194299	112.305994	0.040517	24.400294	0.040448	24.386694	0.555688	1.028294
6.000000	0.181017	106.086619	0.041554	22.548719	0.041501	22.085519	0.555017	1.473919
