!Part No: MASWSS0178
!2-port De-embedded S-parameters
!Date: 11-02-09
!Temp: Room
!Control Voltage = 0/5V
!REF: AQTN1557
!Fixture Loss is only removed from S21 and S12 data
!47pF Blocking Caps
!RFC to RF2 Insertion Loss State
#GHZ S MA R 50								
!Freq(GHz)	S11 (Mag)	S11 (Ang)	S21 (Mag)	S21 (Ang)	S12 (Mag)	S12 (Ang)	S22 (Mag)	S22 (Ang)
0.050000	0.828069	-32.164187	0.507406	55.942613	0.509161	55.679613	0.831626	-32.718287
0.079750	0.683884	-44.481362	0.675304	41.903338	0.674915	42.003638	0.685626	-45.491662
0.109500	0.559876	-53.435836	0.771714	31.706564	0.773335	31.677664	0.562584	-54.309036
0.139250	0.463711	-59.318111	0.827208	24.524299	0.827380	24.370459	0.463961	-60.478811
0.169000	0.389216	-63.321685	0.860884	18.833515	0.858253	18.843835	0.389227	-64.815585
0.198750	0.330496	-66.093060	0.885000	14.500340	0.886055	14.159140	0.328894	-67.693260
0.228500	0.282742	-68.132034	0.896657	10.581766	0.898572	10.620466	0.282361	-69.633234
0.258250	0.243061	-69.621809	0.908540	7.869491	0.908894	7.646991	0.245078	-70.805809
0.288000	0.212107	-70.188983	0.915449	4.896717	0.917695	4.853917	0.212760	-71.774983
0.317750	0.185575	-70.522158	0.921179	2.539342	0.920586	2.508142	0.185958	-71.842158
0.347500	0.161899	-70.865332	0.926291	0.317768	0.924832	0.131568	0.163332	-71.506332
0.377250	0.142334	-70.411506	0.929687	-1.791906	0.928460	-1.830906	0.145133	-70.446506
0.407000	0.125385	-69.456681	0.929588	-3.678081	0.931422	-3.625481	0.128538	-68.982681
0.436750	0.110712	-68.871855	0.932368	-5.444055	0.931529	-5.489955	0.114351	-67.519855
0.466500	0.097574	-67.470030	0.933384	-6.841830	0.934020	-7.038630	0.102815	-65.136030
0.496250	0.087717	-66.196204	0.936928	-8.601804	0.935893	-8.635304	0.092919	-62.464204
0.526000	0.077889	-63.903379	0.935917	-10.043779	0.936478	-10.210479	0.085583	-59.489379
0.555750	0.069425	-61.366553	0.937572	-11.543853	0.937290	-11.585953	0.079366	-56.782553
0.585500	0.063014	-59.898728	0.939632	-12.959728	0.938378	-12.958228	0.073788	-52.565728
0.615250	0.057742	-57.119902	0.938950	-14.302902	0.938162	-14.339602	0.069227	-49.779902
0.645000	0.052979	-53.678077	0.938572	-15.528877	0.939544	-15.710077	0.066928	-47.028077
0.674750	0.048656	-52.067251	0.938069	-16.889251	0.937983	-17.056251	0.063869	-44.344251
0.704500	0.045272	-49.151426	0.937426	-18.207426	0.938229	-18.046426	0.061560	-41.494426
0.734250	0.043718	-46.962600	0.938422	-19.455600	0.938320	-19.391600	0.059707	-39.581600
0.764000	0.042084	-44.738775	0.940212	-20.523775	0.938803	-20.673775	0.058969	-38.432775
0.793750	0.038716	-43.703949	0.940163	-21.839949	0.941551	-21.884949	0.058734	-36.433949
0.823500	0.038459	-42.160123	0.938507	-23.095123	0.938700	-23.022123	0.056869	-35.106123
0.853250	0.038089	-41.440298	0.939890	-24.268298	0.940078	-24.252298	0.055530	-35.548298
0.883000	0.037021	-40.461472	0.941385	-25.387472	0.938876	-25.436472	0.055952	-36.336472
0.912750	0.036480	-43.099647	0.940655	-26.581647	0.939812	-26.547647	0.055057	-36.819647
0.942500	0.037116	-41.616821	0.939839	-27.709821	0.941009	-27.740821	0.053224	-36.263821
0.972250	0.037139	-43.252996	0.939387	-28.740996	0.940570	-28.878996	0.052564	-37.884996
1.002000	0.037134	-45.228170	0.939372	-30.037170	0.941592	-29.993170	0.052376	-39.793170
1.031750	0.037668	-46.430345	0.940664	-31.036345	0.941400	-31.010345	0.051629	-40.356345
1.061500	0.038375	-47.404519	0.940367	-32.142519	0.941976	-32.164519	0.050318	-42.602519
1.091250	0.039670	-50.281694	0.938162	-33.341694	0.941294	-33.257694	0.049347	-45.601694
1.121000	0.040264	-52.105868	0.940533	-34.349868	0.940890	-34.304868	0.049357	-47.952868
1.150750	0.041120	-54.261043	0.940184	-35.413043	0.939760	-35.450043	0.048132	-49.722043
1.180500	0.043276	-55.983217	0.939937	-36.577217	0.939019	-36.566217	0.046216	-52.337217
1.210250	0.044518	-58.197392	0.939749	-37.699392	0.940995	-37.721392	0.046597	-56.549392
1.240000	0.045448	-61.022566	0.940503	-38.766566	0.941343	-38.761566	0.046622	-58.921566
1.269750	0.047488	-61.297741	0.939002	-39.749741	0.940205	-39.787741	0.044486	-60.878741
1.299500	0.049886	-62.902915	0.939718	-40.924915	0.938834	-40.767915	0.043786	-64.975915
1.329250	0.050207	-65.635089	0.940303	-41.828089	0.939318	-41.876089	0.044798	-69.299089
1.359000	0.051918	-66.976264	0.937881	-42.899264	0.939622	-42.959264	0.044387	-70.649264
1.388750	0.054065	-67.529438	0.939866	-43.908438	0.939178	-43.988438	0.042542	-73.908438
1.418500	0.056321	-69.648613	0.938956	-44.939613	0.938194	-44.990613	0.042416	-78.890613
1.448250	0.056385	-71.245787	0.939722	-46.114787	0.938522	-46.132787	0.044085	-81.063887
1.478000	0.058040	-71.245962	0.941194	-47.043962	0.941312	-47.183962	0.042759	-83.212462
1.507750	0.060337	-72.033136	0.944416	-48.116136	0.944497	-48.182136	0.041256	-86.010836
1.537500	0.061392	-73.783411	0.939324	-49.210311	0.939465	-49.270311	0.042014	-89.765911
1.567250	0.062563	-74.959285	0.939036	-50.325485	0.938420	-50.256485	0.043353	-92.128685
1.597000	0.063823	-74.891960	0.939874	-51.214660	0.937346	-51.308660	0.040908	-92.628560
1.626750	0.065039	-75.612134	0.936180	-52.453834	0.938921	-52.326834	0.040466	-96.830634
1.656500	0.066823	-76.943809	0.937099	-53.385509	0.937730	-53.434809	0.041572	-100.100709
1.686250	0.067804	-76.627083	0.938679	-54.505883	0.939560	-54.465383	0.041669	-99.766783
1.716000	0.067424	-76.975658	0.938611	-55.433758	0.938453	-55.466058	0.039731	-102.267858
1.745750	0.069315	-77.963932	0.936959	-56.492532	0.937318	-56.453232	0.039863	-106.139132
1.775500	0.070433	-79.534506	0.936231	-57.560506	0.935314	-57.513006	0.041106	-107.295506
1.805250	0.070590	-79.119281	0.936643	-58.468981	0.937091	-58.526581	0.040510	-107.387981
1.835000	0.072545	-79.625555	0.936876	-59.572155	0.935347	-59.715755	0.039471	-112.092955
1.864750	0.073196	-80.454930	0.935042	-60.634230	0.939360	-60.641830	0.039485	-114.306760
1.894500	0.073895	-82.121504	0.935378	-61.583304	0.934581	-61.676104	0.040516	-114.651684
1.924250	0.074857	-81.473479	0.935460	-62.762579	0.935649	-62.738579	0.038848	-115.481920
1.954000	0.075761	-81.817253	0.937078	-63.826053	0.937461	-63.804553	0.037405	-119.835663
1.983750	0.076653	-83.838028	0.934603	-64.783628	0.936541	-64.725528	0.038393	-123.873228
2.013500	0.077055	-84.029502	0.934822	-65.798302	0.934651	-65.759902	0.038847	-122.562602
2.043250	0.077683	-84.339677	0.934759	-66.831277	0.932897	-66.794877	0.037005	-125.377777
2.073000	0.079716	-85.673851	0.935727	-67.744551	0.935470	-67.849351	0.037114	-131.349251
2.102750	0.081228	-87.030826	0.933039	-68.880526	0.933480	-68.918326	0.037928	-133.017226
2.132500	0.080844	-88.011678	0.933346	-69.824200	0.933687	-69.974800	0.037561	-133.638000
2.162250	0.083049	-88.837845	0.933543	-71.064775	0.932874	-71.013475	0.036131	-138.879575
2.192000	0.085657	-89.985029	0.933212	-71.967679	0.932921	-72.068289	0.036165	-144.731249
2.221750	0.086143	-91.673523	0.935805	-73.113703	0.934454	-73.037533	0.038062	-146.723623
2.251500	0.086299	-91.552298	0.931619	-74.084062	0.932819	-74.032992	0.035294	-147.579098
2.281250	0.088541	-93.816772	0.932004	-75.086122	0.932875	-75.097152	0.036955	-154.934172
2.311000	0.091973	-95.960247	0.931730	-76.050647	0.932396	-76.141347	0.039373	-160.900647
2.340750	0.092393	-96.951321	0.932806	-77.085621	0.932937	-77.100121	0.039543	-161.808621
2.370500	0.093287	-97.736096	0.930776	-78.139296	0.931613	-78.133496	0.038248	-165.967196
2.400250	0.096578	-99.645970	0.929263	-79.230670	0.929911	-79.254470	0.040431	-173.042370
2.430000	0.098997	-101.412845	0.930973	-80.188245	0.930710	-80.311145	0.042952	-176.505545
2.459750	0.099545	-102.547619	0.930091	-81.322619	0.931209	-81.265719	0.042377	-177.799719
2.489500	0.101418	-103.553094	0.931442	-82.302894	0.931195	-82.296994	0.043003	176.512106
2.519250	0.104177	-105.608168	0.929533	-83.391568	0.929773	-83.365968	0.046889	170.865932
2.549000	0.106667	-107.131943	0.929610	-84.374643	0.929624	-84.278343	0.049022	169.935757
2.578750	0.107695	-108.137617	0.931978	-85.261517	0.929178	-85.464617	0.047857	166.962583
2.608500	0.110372	-109.249492	0.927678	-86.290792	0.928069	-86.515892	0.050462	160.861408
2.638250	0.113105	-111.072866	0.925831	-87.464366	0.926403	-87.543766	0.055122	158.666234
2.668000	0.114485	-113.030440	0.929381	-88.483840	0.926988	-88.479440	0.056459	157.373060
2.697750	0.116197	-113.410715	0.923937	-89.470315	0.926409	-89.570815	0.055914	153.715885
2.727500	0.119296	-114.256289	0.925219	-90.622789	0.924637	-90.702989	0.060224	150.946711
2.757250	0.122440	-116.767464	0.924949	-91.663964	0.925248	-91.616864	0.064937	149.189536
2.787000	0.121823	-118.029638	0.926107	-92.698138	0.926456	-92.719538	0.063962	147.921362
2.816750	0.123262	-117.533813	0.924012	-93.763313	0.924714	-93.613613	0.066931	145.057187
2.846500	0.126119	-120.075987	0.925164	-94.713887	0.924296	-94.830387	0.069337	142.743013
2.876250	0.127289	-121.949162	0.925094	-95.743162	0.923532	-95.823162	0.071793	142.984838
2.906000	0.126794	-122.564336	0.925374	-96.796336	0.924089	-96.759336	0.070864	141.236664
2.935750	0.128199	-123.638511	0.923348	-97.757511	0.923772	-97.711511	0.071328	137.964489
2.965500	0.129894	-125.058685	0.923726	-98.681685	0.922551	-98.842685	0.075474	137.689315
2.995250	0.129446	-126.380860	0.924000	-99.824860	0.923120	-99.813860	0.076255	138.147140
3.025000	0.128125	-127.239034	0.923560	-100.848034	0.923793	-100.980034	0.074047	136.298966
3.054750	0.128335	-128.386209	0.922598	-101.926209	0.922017	-102.017209	0.075224	133.951791
3.084500	0.127391	-129.861383	0.923648	-103.127383	0.924052	-103.012383	0.078607	135.029617
3.114250	0.125877	-131.469558	0.925223	-104.104558	0.926099	-103.992558	0.076717	135.854742
3.144000	0.123552	-131.944732	0.931538	-104.946732	0.933809	-105.008732	0.074901	134.321068
3.173750	0.121714	-133.129906	0.931243	-106.083906	0.931691	-106.219906	0.075982	133.359794
3.203500	0.119631	-135.325081	0.924795	-107.127081	0.924314	-107.200081	0.076534	135.479819
3.233250	0.116209	-136.580255	0.923468	-108.213255	0.923774	-108.282255	0.074122	136.875845
3.263000	0.112652	-137.113430	0.921512	-109.236430	0.921045	-109.263430	0.072204	135.337770
3.292750	0.109265	-138.453604	0.922407	-110.267604	0.920673	-110.413604	0.072581	136.576396
3.322500	0.104888	-141.195779	0.921486	-111.498779	0.920612	-111.453779	0.072694	140.105621
3.352250	0.100368	-142.689953	0.920808	-112.388953	0.921540	-112.569953	0.069671	141.708547
3.382000	0.096726	-143.179128	0.919921	-113.571128	0.920150	-113.505128	0.067496	141.791772
3.411750	0.091161	-145.853302	0.920915	-114.483302	0.918683	-114.653302	0.068881	143.963998
3.441500	0.085145	-150.124477	0.920166	-115.663477	0.919280	-115.703477	0.068994	149.475323
3.471250	0.079804	-151.799651	0.921686	-116.704651	0.920302	-116.770651	0.065138	152.651449
3.501000	0.074690	-153.545826	0.919978	-117.864826	0.919712	-117.910826	0.064454	153.429274
3.530750	0.068178	-158.809000	0.919712	-119.071000	0.919972	-119.048000	0.067974	158.319000
3.560500	0.061956	-164.533175	0.919212	-120.148175	0.918261	-120.089175	0.069344	164.553625
3.590250	0.056060	-167.938149	0.917833	-121.125349	0.919636	-121.254349	0.067194	167.554651
3.620000	0.050978	-173.740223	0.919504	-122.390523	0.919786	-122.449523	0.069927	168.924577
3.649750	0.045900	176.811502	0.916738	-123.436698	0.915629	-123.431698	0.075802	173.561402
3.679500	0.043469	167.333028	0.916349	-124.662872	0.914831	-124.611872	0.078717	177.514728
3.709250	0.039841	158.133153	0.914136	-125.511047	0.915202	-125.745047	0.079608	179.584953
3.739000	0.039167	147.073979	0.916603	-126.716221	0.914976	-126.788221	0.083346	-179.728821
3.768750	0.041645	132.710604	0.913614	-127.951396	0.912975	-127.874396	0.089644	-176.560696
3.798500	0.043613	119.883710	0.912692	-129.202570	0.912435	-129.060570	0.093519	-173.921870
3.828250	0.045406	112.578455	0.912119	-130.026745	0.912053	-130.172745	0.095237	-173.493845
3.858000	0.050077	104.823381	0.910027	-131.362419	0.908570	-131.254819	0.101432	-174.060819
3.887750	0.055518	97.884806	0.908979	-132.329794	0.907014	-132.440394	0.109248	-173.354394
3.917500	0.058868	94.942232	0.906699	-133.373968	0.907272	-133.357468	0.111314	-173.028168
3.947250	0.062332	93.100357	0.905731	-134.385143	0.905675	-134.446643	0.109961	-174.743343
3.977000	0.070618	92.228683	0.905982	-135.399917	0.906284	-135.524217	0.114208	-175.390417
4.006750	0.079088	91.067008	0.907571	-136.546592	0.909866	-136.472092	0.118165	-173.486392
4.036500	0.083976	88.978834	0.908492	-137.781366	0.909987	-137.725566	0.117919	-173.231666
4.066250	0.090369	88.193460	0.908921	-138.814540	0.908487	-138.934640	0.118964	-174.731640
4.096000	0.098290	87.404785	0.908399	-140.131315	0.909077	-140.084815	0.123649	-175.460315
4.125750	0.104271	86.429611	0.908826	-141.232189	0.908026	-141.361189	0.126212	-175.215989
4.155500	0.107488	86.545036	0.908119	-142.300564	0.906558	-142.392964	0.123579	-176.986564
4.185250	0.111706	87.077062	0.904267	-143.638738	0.905756	-143.704338	0.124204	-179.624518
4.215000	0.118555	87.054587	0.904706	-144.843413	0.904254	-144.893313	0.127380	179.091217
4.244750	0.122850	87.900713	0.907176	-145.911087	0.905814	-146.079487	0.125356	178.241993
4.274500	0.125181	89.493238	0.903352	-147.203362	0.902534	-147.225062	0.120190	174.927588
4.304250	0.129057	90.865064	0.906417	-148.391036	0.902728	-148.475536	0.119635	170.903864
4.334000	0.134114	91.847589	0.903394	-149.506311	0.900594	-149.618311	0.119178	169.380889
4.363750	0.136937	93.342115	0.901982	-150.618485	0.903844	-150.840885	0.113343	166.810215
4.393500	0.140340	96.559940	0.902631	-151.981630	0.900968	-151.969780	0.107656	160.850640
4.423250	0.144654	98.917766	0.903329	-153.183804	0.902238	-153.257004	0.105974	156.122766
4.453000	0.148607	100.364591	0.904219	-154.482719	0.903452	-154.394869	0.102230	152.605991
4.482750	0.152495	103.607417	0.904017	-155.547553	0.901117	-155.625743	0.094041	145.756917
4.512500	0.157295	107.161243	0.902131	-156.992657	0.901859	-157.110057	0.090381	136.353643
4.542250	0.162997	109.196068	0.901161	-158.130532	0.902644	-158.228832	0.090010	129.620068
4.572000	0.167911	111.967894	0.901982	-159.408006	0.898406	-159.456106	0.084551	122.389094
4.601750	0.174153	115.748719	0.902174	-160.712581	0.902649	-160.752881	0.082103	108.225719
4.631500	0.181769	118.285545	0.900773	-161.979155	0.899791	-162.020155	0.087663	97.869545
4.661250	0.190711	120.923370	0.899833	-163.296430	0.898621	-163.447530	0.089715	89.341370
4.691000	0.196838	123.787196	0.897537	-164.423004	0.896463	-164.600004	0.092215	77.567196
4.720750	0.207592	126.663021	0.899353	-166.134979	0.898941	-166.029279	0.104252	66.840021
4.750500	0.218633	128.745847	0.895436	-167.199653	0.893006	-167.413853	0.116029	60.221847
4.780250	0.226921	130.686672	0.891828	-168.660628	0.891755	-168.693428	0.124094	53.099672
4.810000	0.237599	132.856498	0.889870	-169.908102	0.889799	-170.026502	0.138215	45.350498
4.839750	0.249511	135.108323	0.883119	-171.122077	0.887759	-171.278577	0.155704	40.326323
4.869500	0.261141	136.298149	0.884687	-172.517051	0.883733	-172.673051	0.170116	36.648149
4.899250	0.271138	137.849974	0.884256	-173.800626	0.887020	-173.859826	0.183158	31.831974
4.929000	0.281819	140.150800	0.882545	-175.073500	0.880767	-175.014600	0.201709	27.043800
4.958750	0.294635	141.003626	0.880752	-176.053374	0.883611	-176.059874	0.220267	24.681626
4.988500	0.304821	142.407451	0.872108	-177.268349	0.874154	-177.459849	0.233760	21.859451
5.018250	0.315868	143.656277	0.859328	-178.533223	0.861786	-178.709623	0.248499	17.947277
5.048000	0.328392	144.724102	0.851345	-179.654898	0.850740	-179.791898	0.268946	14.892302
5.077750	0.341475	145.474928	0.842226	179.148928	0.841765	178.998928	0.285250	14.041728
5.107500	0.349394	145.880753	0.835529	177.819753	0.833931	177.809753	0.295771	11.430753
5.137250	0.358040	146.790579	0.827261	176.805579	0.828373	176.584579	0.310663	8.548379
5.167000	0.369128	147.116404	0.819442	175.781404	0.818449	175.356404	0.328968	7.085404
5.196750	0.376073	147.293230	0.810559	174.624230	0.811164	174.354230	0.339566	6.177630
5.226500	0.383193	147.905055	0.803201	173.676055	0.808205	173.405055	0.349589	3.985355
5.256250	0.387625	148.587881	0.796836	172.537881	0.795318	172.120881	0.364614	2.012481
5.286000	0.392293	148.439706	0.789426	171.672706	0.786648	171.466706	0.377479	1.457606
5.315750	0.397654	148.312532	0.783235	170.506532	0.781596	170.399532	0.384449	0.625832
5.345500	0.399433	148.974357	0.775610	169.486357	0.776078	169.284357	0.391741	-0.908943
5.375250	0.400695	149.130183	0.768112	168.461183	0.769046	168.294183	0.404516	-2.511317
5.405000	0.401321	148.858008	0.763661	167.656008	0.761119	167.580008	0.415588	-2.786092
5.434750	0.399743	148.753834	0.757392	166.865834	0.759235	166.647834	0.418806	-3.223666
5.464500	0.398392	148.891660	0.754205	166.113660	0.753756	165.665660	0.424655	-4.482640
5.494250	0.397421	149.082485	0.747866	164.905485	0.744684	164.578485	0.434402	-5.104715
5.524000	0.393020	148.415311	0.747226	164.136311	0.744370	164.073311	0.438858	-4.989489
5.553750	0.388714	147.969136	0.744885	163.255136	0.744214	163.026136	0.437111	-5.752604
5.583500	0.383664	147.620962	0.743053	162.281962	0.739750	161.974962	0.442007	-6.577228
5.613250	0.374974	146.800787	0.738035	161.264787	0.736227	161.070787	0.449122	-6.715933
5.643000	0.365146	145.359613	0.736837	160.690613	0.735262	160.085613	0.446744	-6.373157
5.672750	0.354084	144.526438	0.740392	159.264438	0.737340	159.070438	0.444110	-6.694322
5.702500	0.341236	143.331264	0.737677	158.009264	0.736572	158.100264	0.445485	-7.286736
5.732250	0.328208	141.331089	0.736205	157.311089	0.732248	156.796089	0.448629	-6.481511
5.762000	0.311168	138.982915	0.736745	155.902915	0.730483	155.735915	0.443070	-5.889885
5.791750	0.294053	137.085740	0.737634	154.801740	0.731625	154.632740	0.436748	-5.948460
5.821500	0.275359	134.374566	0.737059	153.553566	0.734492	153.309566	0.438614	-5.828334
5.851250	0.257202	130.672391	0.732021	152.377391	0.730832	152.087391	0.436862	-4.543409
5.881000	0.237320	126.548517	0.736261	151.035217	0.730139	150.902217	0.429377	-3.293683
5.910750	0.217713	122.198343	0.735466	149.651043	0.732295	149.567043	0.424165	-2.824057
5.940500	0.198477	115.774168	0.733337	148.127868	0.732678	148.053868	0.425172	-2.061432
5.970250	0.182791	107.335694	0.733183	146.816694	0.728288	146.794694	0.422294	0.043794
6.000000	0.167344	98.441719	0.730759	145.402519	0.729355	145.466519	0.413609	1.685719
