!Part No: MASWSS0178
!2-port De-embedded S-parameters
!Date: 11-02-09
!Temp: Room
!Control Voltage = 0/5V
!REF: AQTN1557
!Fixture Loss is only removed from S21 and S12 data
!47pF Blocking Caps
!RFC to RF2 Isolation State
#GHZ S MA R 50								
!Freq(GHz)	S11 (Mag)	S11 (Ang)	S21 (Mag)	S21 (Ang)	S12 (Mag)	S12 (Ang)	S22 (Mag)	S22 (Ang)
0.050000	0.832716	-32.059987	0.003950	92.444213	0.005359	-11.934387	0.858824	-29.145287
0.079750	0.685004	-45.409662	0.001551	-42.836562	0.001268	-26.279062	0.733546	-41.373962
0.109500	0.554994	-53.580736	0.001419	50.439164	0.002147	-9.207836	0.618682	-49.822936
0.139250	0.469724	-58.844711	0.001428	79.678989	0.001470	-3.141811	0.525125	-55.720011
0.169000	0.393640	-64.761085	0.001262	15.364085	0.001481	7.218915	0.451367	-60.135785
0.198750	0.318518	-67.793560	0.000880	-19.844760	0.001552	13.668940	0.394615	-63.631360
0.228500	0.273700	-66.365834	0.001637	-21.567334	0.000839	22.639206	0.348747	-65.753634
0.258250	0.252979	-68.442809	0.000499	28.893681	0.000937	33.362044	0.310971	-67.910809
0.288000	0.214158	-73.574983	0.001247	29.509837	0.001029	0.480217	0.281171	-69.806983
0.317750	0.170565	-72.317158	0.001467	8.879142	0.000977	38.725812	0.256192	-70.807158
0.347500	0.155939	-66.843332	0.000995	12.227268	0.000997	42.145158	0.232381	-71.758332
0.377250	0.148090	-70.252506	0.001145	13.705394	0.001179	3.624994	0.212973	-73.169506
0.407000	0.118837	-74.014681	0.000905	-8.512381	0.001272	19.262219	0.197670	-74.459681
0.436750	0.096509	-64.078855	0.000815	4.358245	0.001060	-2.011455	0.183559	-74.946855
0.466500	0.103118	-59.666030	0.000782	-4.130830	0.001104	19.233070	0.169204	-75.898030
0.496250	0.095313	-68.634204	0.001081	27.899796	0.001545	1.049996	0.158300	-77.432204
0.526000	0.066531	-68.058379	0.000789	12.912821	0.000989	-23.778279	0.149531	-78.493379
0.555750	0.064152	-45.798553	0.000867	16.330047	0.000869	-1.551153	0.139928	-79.051553
0.585500	0.079639	-50.089728	0.000947	9.341272	0.001003	19.706572	0.130437	-80.362728
0.615250	0.068088	-65.587902	0.001041	18.216098	0.000927	-15.256302	0.123310	-82.317902
0.645000	0.041076	-57.253077	0.000919	11.588223	0.000792	13.767323	0.117725	-83.443077
0.674750	0.051510	-31.263251	0.000745	14.543949	0.000793	19.821949	0.110673	-84.420251
0.704500	0.065102	-45.489426	0.000981	22.026774	0.000884	12.237674	0.104032	-86.709426
0.734250	0.050155	-63.112600	0.000760	15.850200	0.001010	21.060100	0.100203	-89.060600
0.764000	0.030495	-42.404775	0.000834	-6.757775	0.000738	6.060125	0.096144	-90.371775
0.793750	0.046678	-23.335949	0.000965	11.736351	0.000844	14.255151	0.090601	-92.027949
0.823500	0.056538	-42.022123	0.000938	18.641577	0.001066	4.846077	0.086654	-95.333123
0.853250	0.044351	-55.194298	0.000984	13.009002	0.000912	28.646002	0.084933	-98.088298
0.883000	0.035325	-39.495472	0.000709	7.722528	0.000659	36.030228	0.081704	-99.339472
0.912750	0.047157	-38.973647	0.000553	14.410353	0.000909	28.609953	0.077528	-102.072647
0.942500	0.048459	-56.275821	0.001072	16.271179	0.000850	1.951179	0.075667	-106.072821
0.972250	0.033405	-60.283996	0.000856	13.611004	0.000811	5.231004	0.075109	-108.578996
1.002000	0.034891	-37.559170	0.000671	32.555830	0.000679	10.660830	0.072945	-110.240170
1.031750	0.050159	-46.342345	0.000633	14.357655	0.000778	17.275655	0.070509	-114.027345
1.061500	0.048422	-68.307519	0.000842	14.287481	0.000886	18.506481	0.070315	-118.387519
1.091250	0.031861	-72.437694	0.000477	20.864306	0.000711	19.077306	0.070656	-120.147694
1.121000	0.034808	-45.459868	0.000449	23.991132	0.000665	25.580132	0.068773	-122.358568
1.150750	0.050861	-54.599043	0.000614	31.358957	0.000449	30.844957	0.067985	-126.540043
1.180500	0.050616	-74.099217	0.000473	14.154783	0.000647	17.438783	0.069477	-130.044117
1.210250	0.035673	-77.547392	0.000550	7.756608	0.000520	8.797608	0.069887	-131.332892
1.240000	0.038198	-57.667566	0.000460	33.008434	0.000622	7.770434	0.068651	-134.119466
1.269750	0.052769	-62.874741	0.000773	44.308259	0.000775	20.193259	0.068841	-138.569541
1.299500	0.051986	-78.616915	0.000297	3.168085	0.000617	14.725085	0.070918	-140.820215
1.329250	0.040608	-82.428089	0.000726	3.658911	0.000157	28.053911	0.071286	-142.389789
1.359000	0.040701	-66.503264	0.000596	66.500736	0.000483	15.439736	0.070772	-145.014964
1.388750	0.050893	-66.321438	0.000471	35.713562	0.000455	42.855562	0.072374	-148.523138
1.418500	0.053400	-74.119613	0.000696	48.180387	0.000678	46.342387	0.074586	-149.975113
1.448250	0.050411	-75.801187	0.000225	38.677213	0.000609	39.247213	0.074327	-151.635287
1.478000	0.052162	-73.605762	0.000464	76.107038	0.000312	0.626038	0.074519	-154.678762
1.507750	0.055217	-76.188736	0.000381	47.423864	0.000240	80.922864	0.076752	-157.409036
1.537500	0.051655	-78.817911	0.000506	56.785689	0.000399	80.766689	0.078440	-158.298141
1.567250	0.050372	-72.905485	0.000731	78.572515	0.000407	83.261515	0.078084	-160.275157
1.597000	0.057120	-68.297360	0.000372	120.177440	0.000523	93.871340	0.078904	-163.467390
1.626750	0.062626	-72.906234	0.000660	78.668166	0.000426	84.128166	0.081540	-165.341934
1.656500	0.060753	-78.760609	0.000353	59.795991	0.000374	73.350991	0.082306	-165.957609
1.686250	0.056056	-75.103483	0.000360	129.051417	0.000345	101.323817	0.081837	-168.399583
1.716000	0.059790	-68.242858	0.000630	116.607642	0.000673	108.227642	0.083902	-171.014858
1.745750	0.069215	-70.541432	0.000706	115.151468	0.000841	112.234468	0.086091	-172.327232
1.775500	0.070288	-76.924806	0.000617	115.443294	0.000667	129.799694	0.086151	-173.525306
1.805250	0.063196	-77.490881	0.000901	127.053119	0.000467	144.188919	0.086675	-175.923481
1.835000	0.065605	-70.089355	0.000803	139.968245	0.000792	123.982945	0.088941	-178.136555
1.864750	0.076122	-70.772630	0.000843	115.995770	0.001175	122.209770	0.090466	-179.674230
1.894500	0.078164	-78.357304	0.000893	110.961596	0.001370	130.554596	0.090872	178.667896
1.924250	0.070516	-80.026579	0.000943	151.415921	0.001062	136.597421	0.091680	176.310821
1.954000	0.071760	-72.974753	0.001347	135.765247	0.001359	120.019247	0.094678	174.644147
1.983750	0.082871	-74.752128	0.001520	141.630072	0.001154	138.955072	0.095296	173.244972
2.013500	0.083107	-81.756702	0.001179	130.355898	0.001301	119.131898	0.095978	171.114698
2.043250	0.075080	-80.726577	0.001700	138.099723	0.001501	142.089723	0.098007	168.663223
2.073000	0.081247	-74.775651	0.001436	137.020549	0.001494	130.544549	0.100581	167.120849
2.102750	0.094301	-79.399026	0.001550	128.374374	0.001619	122.413374	0.101306	165.901374
2.132500	0.090970	-87.957139	0.001724	125.503200	0.001421	140.030200	0.102175	163.390200
2.162250	0.081459	-85.884545	0.001774	144.760025	0.001816	135.569025	0.105687	161.434025
2.192000	0.092304	-80.501090	0.002018	132.197851	0.002078	136.277851	0.107951	160.374851
2.221750	0.105259	-88.121223	0.001833	127.088677	0.001840	131.991677	0.109101	158.771677
2.251500	0.096360	-97.052898	0.002091	135.051502	0.002181	137.978502	0.110750	156.490502
2.281250	0.084541	-91.623872	0.002536	140.082328	0.002592	139.718328	0.114256	154.830328
2.311000	0.101382	-85.544047	0.002557	135.113153	0.002537	132.565153	0.116049	153.716153
2.340750	0.117788	-95.362321	0.002146	129.198979	0.002283	129.778979	0.117383	152.037979
2.370500	0.104993	-105.620496	0.002139	135.417804	0.002277	135.936804	0.120278	149.657804
2.400250	0.091480	-99.890270	0.002867	138.865630	0.002823	137.359630	0.123489	148.399630
2.430000	0.109807	-94.152445	0.002888	124.383455	0.003030	129.979455	0.125417	147.590455
2.459750	0.123683	-104.458619	0.002726	128.251281	0.002493	133.908281	0.127478	145.796281
2.489500	0.110045	-113.610594	0.002772	136.836106	0.002860	130.685106	0.131342	143.911106
2.519250	0.098138	-106.517668	0.003418	134.587932	0.003155	136.728932	0.134940	143.314932
2.549000	0.117598	-102.666043	0.003177	126.573757	0.003388	132.502757	0.135469	142.243757
2.578750	0.128146	-112.701917	0.003351	130.474583	0.002916	125.892583	0.138660	139.987583
2.608500	0.112301	-118.457092	0.003259	141.507408	0.003475	138.010408	0.143283	139.002408
2.638250	0.109160	-110.571366	0.003781	139.702234	0.003983	130.738234	0.146285	138.493234
2.668000	0.131132	-111.205040	0.003651	133.567060	0.003795	125.981060	0.146918	137.402060
2.697750	0.134148	-122.213115	0.003528	132.350885	0.003370	133.701885	0.150406	135.388885
2.727500	0.113335	-125.723289	0.004003	139.792711	0.003892	137.676711	0.155065	134.853711
2.757250	0.112951	-115.697464	0.004625	132.063536	0.004747	135.258536	0.156986	134.504536
2.787000	0.135519	-118.095638	0.004468	127.320362	0.004257	122.643362	0.158522	133.091362
2.816750	0.135120	-128.665813	0.004298	136.499187	0.004135	130.674187	0.162950	131.760187
2.846500	0.112459	-129.359987	0.004867	137.295013	0.004702	136.464013	0.166924	131.360013
2.876250	0.117628	-120.134162	0.005159	130.007838	0.005205	130.664838	0.167933	131.032838
2.906000	0.138922	-124.399336	0.004999	127.500664	0.005084	127.031664	0.169662	129.670664
2.935750	0.131185	-134.257511	0.005182	132.230489	0.004877	131.426489	0.174092	128.637489
2.965500	0.109449	-132.290685	0.005788	134.121315	0.005567	138.585315	0.177241	128.565315
2.995250	0.118503	-123.762860	0.005773	131.351140	0.006081	129.929140	0.177666	128.230140
3.025000	0.135753	-129.572034	0.005904	127.908966	0.005698	127.001966	0.179533	126.828966
3.054750	0.124303	-138.181209	0.005981	132.313791	0.005747	131.594791	0.184209	126.150691
3.084500	0.106547	-134.575383	0.006626	132.519417	0.006571	134.002617	0.185353	126.240817
3.114250	0.115702	-129.030558	0.006982	129.202442	0.006960	128.445642	0.185389	125.447742
3.144000	0.123150	-135.050732	0.006782	126.052768	0.006986	126.873968	0.188699	123.941068
3.173750	0.107252	-139.554906	0.007302	130.927194	0.007194	129.862194	0.192218	123.983394
3.203500	0.099684	-132.592081	0.008106	126.951219	0.007942	127.043319	0.191754	123.956719
3.233250	0.113071	-132.120255	0.007646	124.866045	0.007827	125.701745	0.191278	122.956445
3.263000	0.111351	-140.977430	0.007722	124.955670	0.007800	127.590970	0.194458	122.182470
3.292750	0.090660	-142.575604	0.008561	129.699696	0.008125	127.779496	0.196363	122.165096
3.322500	0.087811	-133.489779	0.008849	124.470421	0.009169	123.720221	0.194742	121.848321
3.352250	0.100687	-136.143953	0.008612	121.891647	0.008694	123.884447	0.196011	120.683147
3.382000	0.094821	-145.689128	0.009026	128.787672	0.009019	125.339072	0.197704	120.375872
3.411750	0.075706	-145.961302	0.009421	127.521698	0.009334	127.838798	0.198354	120.282398
3.441500	0.075266	-140.157477	0.010628	124.793523	0.010106	125.199723	0.196669	119.690923
3.471250	0.080624	-146.258651	0.010279	124.137849	0.010313	123.607449	0.196447	118.499449
3.501000	0.068049	-155.373826	0.010677	123.683974	0.011119	125.642974	0.197763	118.027674
3.530750	0.053000	-151.854000	0.011632	123.313400	0.011347	123.361300	0.196207	117.945300
3.560500	0.056207	-147.507175	0.012279	119.599725	0.012056	120.872525	0.193484	116.975025
3.590250	0.057643	-158.695349	0.012111	119.188551	0.011822	119.437551	0.194109	115.746351
3.620000	0.045416	-169.724223	0.012151	120.575477	0.012168	119.383177	0.193861	115.537277
3.649750	0.036168	-169.699998	0.013055	118.347002	0.012882	120.659502	0.189765	115.373302
3.679500	0.038470	-174.342372	0.013530	118.473328	0.013446	118.170688	0.187700	113.807948
3.709250	0.037109	168.362353	0.014147	118.136993	0.013694	117.329943	0.187614	112.838313
3.739000	0.029612	153.480479	0.014596	116.083061	0.014681	116.115365	0.185315	112.581639
3.768750	0.029617	150.299104	0.015125	114.067864	0.015013	113.870694	0.180884	111.526324
3.798500	0.039504	138.975930	0.015731	113.383430	0.015324	114.399790	0.179026	109.901130
3.828250	0.044275	117.428835	0.016164	113.655255	0.016015	113.499055	0.177638	109.039955
3.858000	0.039533	101.547181	0.017026	112.075881	0.016857	111.689781	0.173640	108.304281
3.887750	0.040744	106.471506	0.017511	109.451806	0.017374	110.141906	0.169262	106.262106
3.917500	0.052727	106.676632	0.017577	108.410332	0.017677	109.378032	0.166971	104.620432
3.947250	0.058123	97.320257	0.018554	108.169757	0.018641	108.833157	0.163776	103.346857
3.977000	0.058914	96.594083	0.019139	106.429883	0.019139	106.214783	0.159404	101.742183
4.006750	0.071303	102.052308	0.019237	103.956408	0.019294	104.137008	0.155686	99.518108
4.036500	0.087223	95.797234	0.020011	103.681534	0.020138	104.440634	0.152577	97.192734
4.066250	0.086210	89.340160	0.021211	103.044460	0.020938	103.618960	0.149273	95.342760
4.096000	0.085677	94.737085	0.021727	100.607085	0.021876	101.089985	0.143994	92.659985
4.125750	0.106298	97.133911	0.021584	99.579411	0.021847	99.103411	0.140775	89.204811
4.155500	0.119264	89.975236	0.022273	100.677836	0.022633	100.188536	0.139260	86.099736
4.185250	0.109478	86.561162	0.024303	98.867462	0.024222	98.368862	0.136159	83.516562
4.215000	0.111022	94.898987	0.024113	94.915387	0.024423	95.173987	0.131792	79.450487
4.244750	0.135446	95.983313	0.024234	94.554713	0.024450	96.066813	0.130733	75.056813
4.274500	0.140456	88.889038	0.025823	95.807138	0.025780	95.180138	0.129490	71.378638
4.304250	0.125415	89.647364	0.027215	92.939064	0.027305	92.645264	0.127245	67.040464
4.334000	0.133489	99.239989	0.027698	89.881289	0.027075	89.819289	0.127049	62.159289
4.363750	0.156479	97.627415	0.027368	90.883115	0.027437	89.922115	0.128865	57.140115
4.393500	0.151894	92.840940	0.029399	89.861940	0.029466	89.709940	0.130218	53.053940
4.423250	0.137786	99.612766	0.030772	85.746766	0.030660	86.420766	0.131515	48.339766
4.453000	0.160240	106.834291	0.029890	83.564591	0.030255	83.991591	0.134798	43.243591
4.482750	0.177392	102.544417	0.030618	84.225417	0.030645	84.226417	0.140096	38.687417
4.512500	0.160515	101.280243	0.032793	83.578243	0.032544	83.476243	0.145221	34.749243
4.542250	0.158305	111.511068	0.033674	78.952068	0.034450	79.143068	0.150460	30.494068
4.572000	0.188330	114.273894	0.033448	77.928894	0.033279	77.793894	0.157402	26.433894
4.601750	0.191774	109.334719	0.034033	78.532719	0.034008	78.981719	0.165394	22.985719
4.631500	0.172673	113.339545	0.037139	76.465545	0.037208	77.010545	0.173017	20.088545
4.661250	0.188693	124.160370	0.037504	71.909370	0.037630	71.934370	0.181151	16.658370
4.691000	0.217939	122.543196	0.036702	70.317196	0.036483	71.367196	0.192101	13.804196
4.720750	0.210681	119.392021	0.037973	71.915021	0.038581	72.543021	0.202477	11.454021
4.750500	0.201769	127.683847	0.040661	68.045847	0.040285	68.394847	0.211045	9.328847
4.780250	0.231718	133.531672	0.040858	64.544672	0.040759	63.633672	0.220678	7.157672
4.810000	0.252714	129.652498	0.039415	63.776498	0.039900	64.518498	0.234258	5.550498
4.839750	0.237493	129.895323	0.041706	64.715323	0.041798	64.684323	0.243621	3.874323
4.869500	0.243980	138.307149	0.043920	61.045149	0.044190	60.894149	0.254431	2.140149
4.899250	0.279953	139.369974	0.042979	56.838974	0.043340	56.825974	0.266284	0.726874
4.929000	0.285437	136.064800	0.042540	58.430800	0.043056	58.114800	0.279277	-0.301000
4.958750	0.269383	139.782626	0.045341	58.340626	0.045611	57.760626	0.288865	-1.446474
4.988500	0.296186	146.146451	0.047205	53.453451	0.047099	52.709451	0.300238	-2.653949
5.018250	0.330343	144.543277	0.044083	50.185277	0.044979	50.518277	0.312489	-3.708423
5.048000	0.326208	141.793102	0.044486	51.991102	0.044994	51.766102	0.323931	-4.370498
5.077750	0.318883	145.745928	0.047033	50.902928	0.047425	50.938928	0.335993	-5.030072
5.107500	0.348915	149.420753	0.047452	46.407753	0.048457	45.843753	0.347359	-5.826847
5.137250	0.371069	146.533579	0.046390	44.969579	0.046736	44.500579	0.358850	-6.605121
5.167000	0.357163	145.479404	0.046782	46.335404	0.046993	44.921404	0.369547	-6.998296
5.196750	0.359752	149.671230	0.049620	43.528230	0.049315	43.647230	0.380357	-7.375570
5.226500	0.391645	150.535055	0.049270	39.809455	0.048605	39.559355	0.392132	-7.848445
5.256250	0.399303	147.739881	0.047076	38.827981	0.047598	38.738081	0.402339	-8.145019
5.286000	0.380025	147.869706	0.048754	39.607206	0.048542	39.641106	0.412030	-8.441494
5.315750	0.389601	151.325532	0.051245	36.806432	0.050394	37.021032	0.423652	-8.782168
5.345500	0.412542	150.857357	0.050062	33.724557	0.050055	33.714157	0.433029	-8.755343
5.375250	0.407818	148.287183	0.048249	33.974283	0.048134	33.003983	0.441498	-9.010917
5.405000	0.389508	149.315008	0.049944	34.520008	0.049755	33.607708	0.453490	-9.238192
5.434750	0.399476	151.895834	0.052062	31.547634	0.051706	30.513634	0.461733	-9.199666
5.464500	0.413777	150.079660	0.051353	28.432460	0.050625	27.544860	0.469347	-9.126640
5.494250	0.399615	148.353485	0.050473	28.345685	0.049579	28.425085	0.478428	-9.360915
5.524000	0.384670	149.914311	0.052325	28.015211	0.051804	28.070111	0.488247	-8.984849
5.553750	0.397073	150.420136	0.053261	24.657236	0.052982	25.094436	0.495523	-9.009744
5.583500	0.399000	147.875962	0.052034	23.221162	0.051656	22.707162	0.502734	-8.802590
5.613250	0.373065	145.744787	0.051416	24.107387	0.051433	23.251087	0.510593	-8.637633
5.643000	0.358293	146.998613	0.053397	22.720813	0.053827	22.392313	0.519708	-8.568657
5.672750	0.364228	146.711438	0.054255	19.630738	0.054106	19.878338	0.524107	-8.358762
5.702500	0.353841	143.128264	0.053327	18.141564	0.052990	17.806864	0.529786	-8.306236
5.732250	0.325838	140.587089	0.053090	18.118269	0.052938	17.636529	0.536881	-7.789911
5.762000	0.309410	140.763915	0.055165	17.555195	0.054494	16.915395	0.545079	-7.572385
5.791750	0.304400	138.663740	0.055574	14.793120	0.054860	14.898490	0.547827	-7.161760
5.821500	0.285634	133.582566	0.054433	13.509976	0.054391	13.405576	0.555106	-6.688434
5.851250	0.254299	130.103391	0.054822	13.354891	0.054227	13.579391	0.557071	-6.582309
5.881000	0.236813	128.245117	0.056775	12.367817	0.056255	12.341517	0.563547	-6.032983
5.910750	0.226566	123.094543	0.056629	9.733443	0.056062	10.093443	0.564637	-5.572057
5.940500	0.205625	114.918868	0.056572	9.793168	0.056324	8.859668	0.568057	-5.163232
5.970250	0.182417	107.003394	0.057285	8.904594	0.056872	9.187494	0.573658	-4.763106
6.000000	0.168327	99.981119	0.058119	7.531319	0.058209	7.684819	0.579696	-3.963081
