! TQP7M9106 amplifier S-parameters, from datasheet.
# GHZ   S   DB   R   50.0
0.05	-0.44	-114.25	19.78	144.69	-42.1	39.11	-1.98	-159.88
0.1	-0.52	-146.09	16	138.73	-43.22	20.45	-1.71	-170.16
0.2	-0.5	-164.26	13.87	132.03	-40.75	6.76	-1.5	-175.13
0.4	-0.54	-176.18	11.35	121.63	-40.83	3.6	-1.55	-177.8
0.6	-0.53	178.67	9.5	112.3	-41.24	0.84	-1.56	-176.22
0.8	-0.56	175.24	8.04	104.69	-40.31	1.88	-1.53	-175.02
1	-0.62	171.69	6.85	98.63	-39.99	3.2	-1.53	-173.42
1.2	-0.72	167.05	6.03	91.72	-39.96	4.12	-1.56	-172.13
1.4	-0.89	162.02	5.7	85.91	-39.07	0.13	-1.69	-171.07
1.6	-1.08	156.59	5.69	79.97	-37.92	-5.54	-1.79	-169.68
1.8	-1.27	150.93	5.48	72.26	-37.57	-7.78	-1.95	-168.21
2	-1.38	145.46	5.28	63.03	-36.04	-20.25	-2.21	-167.59
2.2	-1.48	139.99	4.89	53.16	-36.36	-23.44	-2.57	-169.42
2.4	-1.62	134.72	4.85	45.77	-35.84	-33.51	-2.83	-173.07
2.6	-1.9	129.34	5.02	36.67	-34.86	-43.3	-3.01	-178.95
2.8	-2.39	124.31	4.93	26.06	-34.1	-48.61	-2.94	174.59
3	-3.38	121.03	5.32	14.17	-33.25	-62.68	-2.76	167.99
3.2	-5.41	121.85	6.17	-3.37	-32.23	-83.93	-2.38	163.09
3.4	-8.79	141.69	6.71	-26.85	-31.82	-110.34	-1.88	159.52
3.6	-7.36	-178.09	5.31	-52.42	-32.46	-138.25	-1.53	155.58
3.8	-3.69	-170.72	0.7	-76.13	-36.73	-172.04	-1.47	151.81
4	-2.78	-168.72	-0.74	-86.65	-37.56	176.73	-1.65	152.04